
T4F3C 000:500 SEGGER J-Link V4.78 Log File (0001ms, 0290ms total)
T4F3C 000:500 DLL Compiled: Oct  4 2013 19:17:21 (0001ms, 0290ms total)
T4F3C 000:500 Logging started @ 2019-03-09 19:16 (0001ms, 0290ms total)
T4F3C 000:501 JLINK_SetWarnOutHandler(...) (0000ms, 0290ms total)
T4F3C 000:501 JLINK_OpenEx(...)
Firmware: J-Link ARM-OB STM32 compiled Aug 22 2012 19:52:04
Hardware: V7.00
S/N: 305760245
Feature(s): RDI,FlashDL,FlashBP,JFlash,GDBFull  returns O.K. (0288ms, 0578ms total)
T4F3C 000:789 JLINK_SetErrorOutHandler(...) (0000ms, 0578ms total)
T4F3C 000:789 JLINK_ExecCommand("ProjectFile = "E:\智慧停车项目\停车场车位检测项目\扫码终端项目\程序\soft_scan_v0.14最终版(20190309修改) 演示软件 -lib\APP\JLinkSettings.ini"", ...)  returns 0x00 (0000ms, 0578ms total)
T4F3C 000:798 JLINK_ExecCommand("Device = STM32F103VE", ...)Device "STM32F103VE" selected (512 KB flash, 64 KB RAM).  returns 0x00 (0029ms, 0607ms total)
T4F3C 000:827 JLINK_ExecCommand("DisableConnectionTimeout", ...)  returns 0x01 (0000ms, 0607ms total)
T4F3C 000:827 JLINK_GetHardwareVersion()  returns 0x11170 (0000ms, 0607ms total)
T4F3C 000:827 JLINK_GetDLLVersion()  returns 47800 (0000ms, 0607ms total)
T4F3C 000:827 JLINK_GetFirmwareString(...) (0000ms, 0607ms total)
T4F3C 000:851 JLINK_GetDLLVersion()  returns 47800 (0000ms, 0607ms total)
T4F3C 000:852 JLINK_GetCompileDateTime() (0000ms, 0607ms total)
T4F3C 000:854 JLINK_GetFirmwareString(...) (0000ms, 0607ms total)
T4F3C 000:856 JLINK_GetHardwareVersion()  returns 0x11170 (0000ms, 0607ms total)
T4F3C 000:876 JLINK_TIF_Select(JLINKARM_TIF_SWD)  returns 0x00 (0004ms, 0611ms total)
T4F3C 000:880 JLINK_SetSpeed(2000) (0001ms, 0612ms total)
T4F3C 000:881 JLINK_GetId() >0x108 TIF>Found SWD-DP with ID 0x1BA01477 >0x0D TIF> >0x28 TIF> >0x0D TIF> >0x28 TIF> >0x0D TIF> >0x21 TIF> >0x0D TIF> >0x28 TIF> >0x0D TIF> >0x28 TIF> >0x0D TIF> >0x28 TIF> >0x0D TIF> >0x21 TIF> >0x0D TIF> >0x21 TIF> >0x0D TIF> >0x28 TIF> >0x0D TIF> >0x21 TIF> >0x0D TIF> >0x21 TIF> >0x108 TIF>Found SWD-DP with ID 0x1BA01477 >0x0D TIF> >0x21 TIF> >0x0D TIF> >0x28 TIF> >0x0D TIF> >0x28 TIF> >0x0D TIF> >0x21 TIF> >0x0D TIF> >0x28 TIF> >0x0D TIF> >0x21 TIF> >0x0D TIF> >0x21 TIF>
 >0x0D TIF> >0x21 TIF> >0x0D TIF> >0x21 TIF> >0x0D TIF> >0x28 TIF> >0x0D TIF> >0x28 TIF> >0x0D TIF> >0x21 TIF> >0x0D TIF> >0x28 TIF> >0x0D TIF> >0x28 TIF> >0x0D TIF> >0x28 TIF> >0x0D TIF> >0x21 TIF> >0x0D TIF> >0x21 TIF> >0x0D TIF> >0x28 TIF> >0x0D TIF> >0x21 TIF> >0x0D TIF> >0x21 TIF>Found Cortex-M3 r1p1, Little endian. -- CPU_WriteMem(4 bytes @ 0xE0002000) -- CPU_ReadMem(4 bytes @ 0xE000EDF0) -- CPU_ReadMem(4 bytes @ 0xE0002000)FPUnit: 6 code (BP) slots and 2 literal slots
 -- CPU_ReadMem(4 bytes @ 0xE000EDFC) -- CPU_ReadMem(4 bytes @ 0xE0001000) -- CPU_WriteMem(4 bytes @ 0xE0001000) -- CPU_ReadMem(4 bytes @ 0xE00FF010)TPIU fitted. -- CPU_ReadMem(4 bytes @ 0xE00FF014)ETM fitted. -- CPU_ReadMem(4 bytes @ 0xE00FF018) >0x0D TIF> >0x21 TIF>  returns 0x1BA01477 (0112ms, 0724ms total)
T4F3C 000:993 JLINK_GetDeviceFamily()  returns 3 (0000ms, 0724ms total)
T4F3C 000:996 JLINK_ReadMem (0xE00FFFF0, 0x0010 Bytes, ...) -- CPU is running -- CPU_ReadMem(16 bytes @ 0xE00FFFF0) -- Data:  0D 00 00 00 10 00 00 00 05 00 00 00 B1 00 00 00  returns 0x00 (0001ms, 0725ms total)
T4F3C 000:997 JLINK_ReadMem (0xE00FFFD0, 0x0020 Bytes, ...) -- CPU is running -- CPU_ReadMem(32 bytes @ 0xE00FFFD0) -- Data:  00 00 00 00 00 00 00 00 00 00 00 00 00 00 00 00 ...  returns 0x00 (0001ms, 0726ms total)
T4F3C 000:998 JLINK_ReadMem (0xE00FF000, 0x0018 Bytes, ...) -- CPU is running -- CPU_ReadMem(24 bytes @ 0xE00FF000) -- Data:  03 F0 F0 FF 03 20 F0 FF 03 30 F0 FF 03 10 F0 FF ...  returns 0x00 (0001ms, 0727ms total)
T4F3C 000:999 JLINK_ReadMemU32(0xE000ED00, 0x0001 Items, ...) -- CPU is running -- CPU_ReadMem(4 bytes @ 0xE000ED00) -- Data:  31 C2 1F 41  returns 0x01 (0001ms, 0728ms total)
T4F3C 001:000 JLINK_SetResetType(JLINKARM_RESET_TYPE_NORMAL)  returns JLINKARM_RESET_TYPE_NORMAL (0000ms, 0728ms total)
T4F3C 001:000 JLINK_Reset() -- CPU is running -- CPU_WriteMem(4 bytes @ 0xE000EDF0) -- CPU is running -- CPU_WriteMem(4 bytes @ 0xE000EDFC) >0x35 TIF> -- CPU is running -- CPU_WriteMem(4 bytes @ 0xE000ED0C) -- CPU is running -- CPU_ReadMem(4 bytes @ 0xE000EDF0) -- CPU is running -- CPU_ReadMem(4 bytes @ 0xE000EDF0) -- CPU is running -- CPU_WriteMem(4 bytes @ 0xE000EDF0) -- CPU is running -- CPU_WriteMem(4 bytes @ 0xE000EDFC) -- CPU is running -- CPU_ReadMem(4 bytes @ 0xE000EDF0)
 -- CPU_WriteMem(4 bytes @ 0xE0002000) (0023ms, 0751ms total)
T4F3C 001:023 JLINK_Halt()  returns 0x00 (0001ms, 0752ms total)
T4F3C 001:024 JLINK_IsHalted()  returns TRUE (0000ms, 0752ms total)
T4F3C 001:024 JLINK_ReadMemU32(0xE000EDF0, 0x0001 Items, ...) -- CPU_ReadMem(4 bytes @ 0xE000EDF0) -- Data:  03 00 03 00  returns 0x01 (0001ms, 0753ms total)
T4F3C 001:025 JLINK_WriteU32(0xE000EDF0, 0xA05F0003) -- CPU_WriteMem(4 bytes @ 0xE000EDF0)  returns 0x00 (0001ms, 0754ms total)
T4F3C 001:026 JLINK_WriteU32(0xE000EDFC, 0x01000000) -- CPU_WriteMem(4 bytes @ 0xE000EDFC)  returns 0x00 (0001ms, 0755ms total)
T4F3C 001:041 JLINK_GetHWStatus(...)  returns 0x00 (0001ms, 0756ms total)
T4F3C 001:054 JLINK_GetNumBPUnits(Type = 0xFFFFFF00)  returns 0x06 (0000ms, 0756ms total)
T4F3C 001:054 JLINK_GetNumBPUnits(Type = 0xF0)  returns 0x2000 (0000ms, 0756ms total)
T4F3C 001:054 JLINK_GetNumWPUnits()  returns 0x04 (0000ms, 0756ms total)
T4F3C 001:066 JLINK_GetSpeed()  returns 0x7D0 (0000ms, 0756ms total)
T4F3C 001:072 JLINK_ReadMemU32(0xE000E004, 0x0001 Items, ...) -- CPU_ReadMem(4 bytes @ 0xE000E004) -- Data:  01 00 00 00  returns 0x01 (0002ms, 0758ms total)
T4F3C 001:074 JLINK_ReadMemU32(0xE000E004, 0x0001 Items, ...) -- CPU_ReadMem(4 bytes @ 0xE000E004) -- Data:  01 00 00 00  returns 0x01 (0001ms, 0759ms total)
T4F3C 001:075 JLINK_WriteMem(0xE0001000, 0x001C Bytes, ...) -- Data:  01 00 00 00 00 00 00 00 00 00 00 00 00 00 00 00 ... -- CPU_WriteMem(28 bytes @ 0xE0001000)  returns 0x1C (0001ms, 0760ms total)
T4F3C 001:076 JLINK_ReadMem (0xE0001000, 0x001C Bytes, ...) -- CPU_ReadMem(28 bytes @ 0xE0001000) -- Data:  01 00 00 40 00 00 00 00 00 00 00 00 00 00 00 00 ...  returns 0x00 (0001ms, 0761ms total)
T4F3C 001:077 JLINK_Halt()  returns 0x00 (0000ms, 0761ms total)
T4F3C 001:077 JLINK_IsHalted()  returns TRUE (0000ms, 0761ms total)
T4F3C 001:081 JLINK_WriteMem(0x20000000, 0x0164 Bytes, ...) -- Data:  00 BE 0A E0 0D 78 2D 06 68 40 08 24 40 00 00 D3 ... -- CPU_WriteMem(356 bytes @ 0x20000000)  returns 0x164 (0005ms, 0766ms total)
T4F3C 001:086 JLINK_WriteReg(R0, 0x08000000)  returns 0x00 (0000ms, 0766ms total)
T4F3C 001:086 JLINK_WriteReg(R1, 0x007A1200)  returns 0x00 (0000ms, 0766ms total)
T4F3C 001:086 JLINK_WriteReg(R2, 0x00000001)  returns 0x00 (0000ms, 0766ms total)
T4F3C 001:086 JLINK_WriteReg(R3, 0x00000000)  returns 0x00 (0000ms, 0766ms total)
T4F3C 001:086 JLINK_WriteReg(R4, 0x00000000)  returns 0x00 (0000ms, 0766ms total)
T4F3C 001:086 JLINK_WriteReg(R5, 0x00000000)  returns 0x00 (0000ms, 0766ms total)
T4F3C 001:086 JLINK_WriteReg(R6, 0x00000000)  returns 0x00 (0000ms, 0766ms total)
T4F3C 001:086 JLINK_WriteReg(R7, 0x00000000)  returns 0x00 (0000ms, 0766ms total)
T4F3C 001:086 JLINK_WriteReg(R8, 0x00000000)  returns 0x00 (0000ms, 0766ms total)
T4F3C 001:086 JLINK_WriteReg(R9, 0x20000160)  returns 0x00 (0000ms, 0766ms total)
T4F3C 001:086 JLINK_WriteReg(R10, 0x00000000)  returns 0x00 (0000ms, 0766ms total)
T4F3C 001:086 JLINK_WriteReg(R11, 0x00000000)  returns 0x00 (0000ms, 0766ms total)
T4F3C 001:086 JLINK_WriteReg(R12, 0x00000000)  returns 0x00 (0000ms, 0766ms total)
T4F3C 001:086 JLINK_WriteReg(R13 (SP), 0x20000800)  returns 0x00 (0000ms, 0766ms total)
T4F3C 001:086 JLINK_WriteReg(R14, 0x20000001)  returns 0x00 (0000ms, 0766ms total)
T4F3C 001:086 JLINK_WriteReg(R15 (PC), 0x20000038)  returns 0x00 (0000ms, 0766ms total)
T4F3C 001:086 JLINK_WriteReg(XPSR, 0x01000000)  returns 0x00 (0000ms, 0766ms total)
T4F3C 001:086 JLINK_WriteReg(MSP, 0x20000800)  returns 0x00 (0000ms, 0766ms total)
T4F3C 001:086 JLINK_WriteReg(PSP, 0x20000800)  returns 0x00 (0000ms, 0766ms total)
T4F3C 001:086 JLINK_WriteReg(CFBP, 0x00000000)  returns 0x00 (0000ms, 0766ms total)
T4F3C 001:086 JLINK_SetBPEx(Addr = 0x20000000, Type = 0xFFFFFFF2) -- CPU_ReadMem(2 bytes @ 0x20000000)  returns 0x00000001 (0002ms, 0768ms total)
T4F3C 001:088 JLINK_Go() -- CPU_WriteMem(2 bytes @ 0x20000000) -- CPU_WriteMem(4 bytes @ 0xE0002008) -- CPU_WriteMem(4 bytes @ 0xE000200C) -- CPU_WriteMem(4 bytes @ 0xE0002010) -- CPU_WriteMem(4 bytes @ 0xE0002014) -- CPU_WriteMem(4 bytes @ 0xE0002018) -- CPU_WriteMem(4 bytes @ 0xE000201C) (0010ms, 0778ms total)
T4F3C 001:098 JLINK_IsHalted() -- CPU_ReadMem(2 bytes @ 0x20000000)  returns TRUE (0005ms, 0783ms total)
T4F3C 001:103 JLINK_ReadReg(R15 (PC))  returns 0x20000000 (0000ms, 0778ms total)
T4F3C 001:103 JLINK_ClrBPEx(BPHandle = 0x00000001)  returns 0x00 (0000ms, 0778ms total)
T4F3C 001:103 JLINK_ReadReg(R0)  returns 0x00000000 (0000ms, 0778ms total)
T4F3C 001:103 JLINK_WriteReg(R0, 0x08000000)  returns 0x00 (0000ms, 0778ms total)
T4F3C 001:103 JLINK_WriteReg(R1, 0x007A1200)  returns 0x00 (0000ms, 0778ms total)
T4F3C 001:103 JLINK_WriteReg(R2, 0x00000001)  returns 0x00 (0000ms, 0778ms total)
T4F3C 001:103 JLINK_WriteReg(R3, 0x00000000)  returns 0x00 (0000ms, 0778ms total)
T4F3C 001:103 JLINK_WriteReg(R4, 0x00000000)  returns 0x00 (0000ms, 0778ms total)
T4F3C 001:103 JLINK_WriteReg(R5, 0x00000000)  returns 0x00 (0000ms, 0778ms total)
T4F3C 001:103 JLINK_WriteReg(R6, 0x00000000)  returns 0x00 (0000ms, 0778ms total)
T4F3C 001:103 JLINK_WriteReg(R7, 0x00000000)  returns 0x00 (0000ms, 0778ms total)
T4F3C 001:103 JLINK_WriteReg(R8, 0x00000000)  returns 0x00 (0000ms, 0778ms total)
T4F3C 001:103 JLINK_WriteReg(R9, 0x20000160)  returns 0x00 (0000ms, 0778ms total)
T4F3C 001:103 JLINK_WriteReg(R10, 0x00000000)  returns 0x00 (0001ms, 0779ms total)
T4F3C 001:104 JLINK_WriteReg(R11, 0x00000000)  returns 0x00 (0000ms, 0779ms total)
T4F3C 001:104 JLINK_WriteReg(R12, 0x00000000)  returns 0x00 (0000ms, 0779ms total)
T4F3C 001:104 JLINK_WriteReg(R13 (SP), 0x20000800)  returns 0x00 (0000ms, 0779ms total)
T4F3C 001:104 JLINK_WriteReg(R14, 0x20000001)  returns 0x00 (0000ms, 0779ms total)
T4F3C 001:104 JLINK_WriteReg(R15 (PC), 0x2000007C)  returns 0x00 (0000ms, 0779ms total)
T4F3C 001:104 JLINK_WriteReg(XPSR, 0x01000000)  returns 0x00 (0000ms, 0779ms total)
T4F3C 001:104 JLINK_WriteReg(MSP, 0x20000800)  returns 0x00 (0000ms, 0779ms total)
T4F3C 001:104 JLINK_WriteReg(PSP, 0x20000800)  returns 0x00 (0000ms, 0779ms total)
T4F3C 001:104 JLINK_WriteReg(CFBP, 0x00000000)  returns 0x00 (0000ms, 0779ms total)
T4F3C 001:104 JLINK_SetBPEx(Addr = 0x20000000, Type = 0xFFFFFFF2)  returns 0x00000002 (0000ms, 0779ms total)
T4F3C 001:104 JLINK_Go() (0002ms, 0781ms total)
T4F3C 001:106 JLINK_IsHalted()  returns FALSE (0001ms, 0782ms total)
T4F3C 001:247 JLINK_IsHalted() -- CPU_ReadMem(2 bytes @ 0x20000000)  returns TRUE (0005ms, 0786ms total)
T4F3C 001:252 JLINK_ReadReg(R15 (PC))  returns 0x20000000 (0000ms, 0781ms total)
T4F3C 001:252 JLINK_ClrBPEx(BPHandle = 0x00000002)  returns 0x00 (0000ms, 0781ms total)
T4F3C 001:252 JLINK_ReadReg(R0)  returns 0x00000000 (0000ms, 0781ms total)
T4F3C 001:302 JLINK_WriteReg(R0, 0x00000001)  returns 0x00 (0000ms, 0781ms total)
T4F3C 001:303 JLINK_WriteReg(R1, 0x007A1200)  returns 0x00 (0000ms, 0782ms total)
T4F3C 001:303 JLINK_WriteReg(R2, 0x00000001)  returns 0x00 (0000ms, 0782ms total)
T4F3C 001:303 JLINK_WriteReg(R3, 0x00000000)  returns 0x00 (0000ms, 0782ms total)
T4F3C 001:303 JLINK_WriteReg(R4, 0x00000000)  returns 0x00 (0000ms, 0782ms total)
T4F3C 001:303 JLINK_WriteReg(R5, 0x00000000)  returns 0x00 (0000ms, 0782ms total)
T4F3C 001:303 JLINK_WriteReg(R6, 0x00000000)  returns 0x00 (0000ms, 0782ms total)
T4F3C 001:303 JLINK_WriteReg(R7, 0x00000000)  returns 0x00 (0000ms, 0782ms total)
T4F3C 001:303 JLINK_WriteReg(R8, 0x00000000)  returns 0x00 (0000ms, 0782ms total)
T4F3C 001:303 JLINK_WriteReg(R9, 0x20000160)  returns 0x00 (0000ms, 0782ms total)
T4F3C 001:303 JLINK_WriteReg(R10, 0x00000000)  returns 0x00 (0000ms, 0782ms total)
T4F3C 001:303 JLINK_WriteReg(R11, 0x00000000)  returns 0x00 (0000ms, 0782ms total)
T4F3C 001:303 JLINK_WriteReg(R12, 0x00000000)  returns 0x00 (0000ms, 0782ms total)
T4F3C 001:303 JLINK_WriteReg(R13 (SP), 0x20000800)  returns 0x00 (0000ms, 0782ms total)
T4F3C 001:303 JLINK_WriteReg(R14, 0x20000001)  returns 0x00 (0000ms, 0782ms total)
T4F3C 001:303 JLINK_WriteReg(R15 (PC), 0x2000006A)  returns 0x00 (0000ms, 0782ms total)
T4F3C 001:303 JLINK_WriteReg(XPSR, 0x01000000)  returns 0x00 (0000ms, 0782ms total)
T4F3C 001:303 JLINK_WriteReg(MSP, 0x20000800)  returns 0x00 (0000ms, 0782ms total)
T4F3C 001:303 JLINK_WriteReg(PSP, 0x20000800)  returns 0x00 (0000ms, 0782ms total)
T4F3C 001:303 JLINK_WriteReg(CFBP, 0x00000000)  returns 0x00 (0000ms, 0782ms total)
T4F3C 001:303 JLINK_SetBPEx(Addr = 0x20000000, Type = 0xFFFFFFF2)  returns 0x00000003 (0000ms, 0782ms total)
T4F3C 001:303 JLINK_Go() (0002ms, 0784ms total)
T4F3C 001:305 JLINK_IsHalted() -- CPU_ReadMem(2 bytes @ 0x20000000)  returns TRUE (0005ms, 0789ms total)
T4F3C 001:310 JLINK_ReadReg(R15 (PC))  returns 0x20000000 (0000ms, 0784ms total)
T4F3C 001:311 JLINK_ClrBPEx(BPHandle = 0x00000003)  returns 0x00 (0000ms, 0784ms total)
T4F3C 001:311 JLINK_ReadReg(R0)  returns 0x00000000 (0000ms, 0784ms total)
T4F3C 001:319 JLINK_WriteMem(0x20000000, 0x0164 Bytes, ...) -- Data:  00 BE 0A E0 0D 78 2D 06 68 40 08 24 40 00 00 D3 ... -- CPU_WriteMem(356 bytes @ 0x20000000)  returns 0x164 (0005ms, 0789ms total)
T4F3C 001:324 JLINK_WriteReg(R0, 0x08000000)  returns 0x00 (0000ms, 0789ms total)
T4F3C 001:324 JLINK_WriteReg(R1, 0x007A1200)  returns 0x00 (0000ms, 0789ms total)
T4F3C 001:324 JLINK_WriteReg(R2, 0x00000002)  returns 0x00 (0000ms, 0789ms total)
T4F3C 001:324 JLINK_WriteReg(R3, 0x00000000)  returns 0x00 (0000ms, 0789ms total)
T4F3C 001:324 JLINK_WriteReg(R4, 0x00000000)  returns 0x00 (0000ms, 0789ms total)
T4F3C 001:324 JLINK_WriteReg(R5, 0x00000000)  returns 0x00 (0000ms, 0789ms total)
T4F3C 001:324 JLINK_WriteReg(R6, 0x00000000)  returns 0x00 (0000ms, 0789ms total)
T4F3C 001:324 JLINK_WriteReg(R7, 0x00000000)  returns 0x00 (0000ms, 0789ms total)
T4F3C 001:324 JLINK_WriteReg(R8, 0x00000000)  returns 0x00 (0000ms, 0789ms total)
T4F3C 001:324 JLINK_WriteReg(R9, 0x20000160)  returns 0x00 (0000ms, 0789ms total)
T4F3C 001:324 JLINK_WriteReg(R10, 0x00000000)  returns 0x00 (0000ms, 0789ms total)
T4F3C 001:324 JLINK_WriteReg(R11, 0x00000000)  returns 0x00 (0000ms, 0789ms total)
T4F3C 001:324 JLINK_WriteReg(R12, 0x00000000)  returns 0x00 (0000ms, 0789ms total)
T4F3C 001:324 JLINK_WriteReg(R13 (SP), 0x20000800)  returns 0x00 (0000ms, 0789ms total)
T4F3C 001:324 JLINK_WriteReg(R14, 0x20000001)  returns 0x00 (0000ms, 0789ms total)
T4F3C 001:324 JLINK_WriteReg(R15 (PC), 0x20000038)  returns 0x00 (0000ms, 0789ms total)
T4F3C 001:324 JLINK_WriteReg(XPSR, 0x01000000)  returns 0x00 (0000ms, 0789ms total)
T4F3C 001:324 JLINK_WriteReg(MSP, 0x20000800)  returns 0x00 (0000ms, 0789ms total)
T4F3C 001:324 JLINK_WriteReg(PSP, 0x20000800)  returns 0x00 (0000ms, 0789ms total)
T4F3C 001:324 JLINK_WriteReg(CFBP, 0x00000000)  returns 0x00 (0000ms, 0789ms total)
T4F3C 001:324 JLINK_SetBPEx(Addr = 0x20000000, Type = 0xFFFFFFF2) -- CPU_ReadMem(2 bytes @ 0x20000000)  returns 0x00000004 (0002ms, 0791ms total)
T4F3C 001:326 JLINK_Go() -- CPU_WriteMem(2 bytes @ 0x20000000) (0004ms, 0795ms total)
T4F3C 001:330 JLINK_IsHalted() -- CPU_ReadMem(2 bytes @ 0x20000000)  returns TRUE (0005ms, 0800ms total)
T4F3C 001:335 JLINK_ReadReg(R15 (PC))  returns 0x20000000 (0000ms, 0795ms total)
T4F3C 001:335 JLINK_ClrBPEx(BPHandle = 0x00000004)  returns 0x00 (0000ms, 0795ms total)
T4F3C 001:335 JLINK_ReadReg(R0)  returns 0x00000000 (0000ms, 0795ms total)
T4F3C 001:335 JLINK_WriteMem(0x20000164, 0x0400 Bytes, ...) -- Data:  00 04 00 20 E3 03 00 08 29 04 00 08 2B 04 00 08 ... -- CPU_WriteMem(1024 bytes @ 0x20000164)  returns 0x400 (0013ms, 0808ms total)
T4F3C 001:348 JLINK_WriteReg(R0, 0x08000000)  returns 0x00 (0000ms, 0808ms total)
T4F3C 001:348 JLINK_WriteReg(R1, 0x00000400)  returns 0x00 (0000ms, 0808ms total)
T4F3C 001:348 JLINK_WriteReg(R2, 0x20000164)  returns 0x00 (0000ms, 0808ms total)
T4F3C 001:348 JLINK_WriteReg(R3, 0x00000000)  returns 0x00 (0000ms, 0808ms total)
T4F3C 001:348 JLINK_WriteReg(R4, 0x00000000)  returns 0x00 (0000ms, 0808ms total)
T4F3C 001:348 JLINK_WriteReg(R5, 0x00000000)  returns 0x00 (0000ms, 0808ms total)
T4F3C 001:348 JLINK_WriteReg(R6, 0x00000000)  returns 0x00 (0000ms, 0808ms total)
T4F3C 001:348 JLINK_WriteReg(R7, 0x00000000)  returns 0x00 (0000ms, 0808ms total)
T4F3C 001:348 JLINK_WriteReg(R8, 0x00000000)  returns 0x00 (0000ms, 0808ms total)
T4F3C 001:348 JLINK_WriteReg(R9, 0x20000160)  returns 0x00 (0000ms, 0808ms total)
T4F3C 001:348 JLINK_WriteReg(R10, 0x00000000)  returns 0x00 (0000ms, 0808ms total)
T4F3C 001:348 JLINK_WriteReg(R11, 0x00000000)  returns 0x00 (0000ms, 0808ms total)
T4F3C 001:348 JLINK_WriteReg(R12, 0x00000000)  returns 0x00 (0000ms, 0808ms total)
T4F3C 001:348 JLINK_WriteReg(R13 (SP), 0x20000800)  returns 0x00 (0000ms, 0808ms total)
T4F3C 001:348 JLINK_WriteReg(R14, 0x20000001)  returns 0x00 (0000ms, 0808ms total)
T4F3C 001:348 JLINK_WriteReg(R15 (PC), 0x200000F4)  returns 0x00 (0000ms, 0808ms total)
T4F3C 001:348 JLINK_WriteReg(XPSR, 0x01000000)  returns 0x00 (0000ms, 0808ms total)
T4F3C 001:348 JLINK_WriteReg(MSP, 0x20000800)  returns 0x00 (0000ms, 0808ms total)
T4F3C 001:348 JLINK_WriteReg(PSP, 0x20000800)  returns 0x00 (0000ms, 0808ms total)
T4F3C 001:348 JLINK_WriteReg(CFBP, 0x00000000)  returns 0x00 (0000ms, 0808ms total)
T4F3C 001:348 JLINK_SetBPEx(Addr = 0x20000000, Type = 0xFFFFFFF2)  returns 0x00000005 (0000ms, 0808ms total)
T4F3C 001:348 JLINK_Go() (0003ms, 0811ms total)
T4F3C 001:351 JLINK_IsHalted()  returns FALSE (0001ms, 0812ms total)
T4F3C 001:433 JLINK_IsHalted() -- CPU_ReadMem(2 bytes @ 0x20000000)  returns TRUE (0005ms, 0816ms total)
T4F3C 001:438 JLINK_ReadReg(R15 (PC))  returns 0x20000000 (0000ms, 0811ms total)
T4F3C 001:438 JLINK_ClrBPEx(BPHandle = 0x00000005)  returns 0x00 (0000ms, 0811ms total)
T4F3C 001:438 JLINK_ReadReg(R0)  returns 0x00000000 (0000ms, 0811ms total)
T4F3C 001:438 JLINK_WriteMem(0x20000164, 0x0400 Bytes, ...) -- Data:  FE E7 FE E7 05 48 06 49 04 4A 06 4B 70 47 00 00 ... -- CPU_WriteMem(1024 bytes @ 0x20000164)  returns 0x400 (0014ms, 0825ms total)
T4F3C 001:452 JLINK_WriteReg(R0, 0x08000400)  returns 0x00 (0000ms, 0825ms total)
T4F3C 001:452 JLINK_WriteReg(R1, 0x00000400)  returns 0x00 (0000ms, 0825ms total)
T4F3C 001:452 JLINK_WriteReg(R2, 0x20000164)  returns 0x00 (0000ms, 0825ms total)
T4F3C 001:452 JLINK_WriteReg(R3, 0x00000000)  returns 0x00 (0000ms, 0825ms total)
T4F3C 001:452 JLINK_WriteReg(R4, 0x00000000)  returns 0x00 (0000ms, 0825ms total)
T4F3C 001:452 JLINK_WriteReg(R5, 0x00000000)  returns 0x00 (0000ms, 0825ms total)
T4F3C 001:452 JLINK_WriteReg(R6, 0x00000000)  returns 0x00 (0000ms, 0825ms total)
T4F3C 001:452 JLINK_WriteReg(R7, 0x00000000)  returns 0x00 (0000ms, 0825ms total)
T4F3C 001:452 JLINK_WriteReg(R8, 0x00000000)  returns 0x00 (0000ms, 0825ms total)
T4F3C 001:452 JLINK_WriteReg(R9, 0x20000160)  returns 0x00 (0000ms, 0825ms total)
T4F3C 001:452 JLINK_WriteReg(R10, 0x00000000)  returns 0x00 (0001ms, 0826ms total)
T4F3C 001:453 JLINK_WriteReg(R11, 0x00000000)  returns 0x00 (0000ms, 0826ms total)
T4F3C 001:453 JLINK_WriteReg(R12, 0x00000000)  returns 0x00 (0000ms, 0826ms total)
T4F3C 001:453 JLINK_WriteReg(R13 (SP), 0x20000800)  returns 0x00 (0000ms, 0826ms total)
T4F3C 001:453 JLINK_WriteReg(R14, 0x20000001)  returns 0x00 (0000ms, 0826ms total)
T4F3C 001:453 JLINK_WriteReg(R15 (PC), 0x200000F4)  returns 0x00 (0000ms, 0826ms total)
T4F3C 001:453 JLINK_WriteReg(XPSR, 0x01000000)  returns 0x00 (0000ms, 0826ms total)
T4F3C 001:453 JLINK_WriteReg(MSP, 0x20000800)  returns 0x00 (0000ms, 0826ms total)
T4F3C 001:453 JLINK_WriteReg(PSP, 0x20000800)  returns 0x00 (0000ms, 0826ms total)
T4F3C 001:453 JLINK_WriteReg(CFBP, 0x00000000)  returns 0x00 (0000ms, 0826ms total)
T4F3C 001:453 JLINK_SetBPEx(Addr = 0x20000000, Type = 0xFFFFFFF2)  returns 0x00000006 (0000ms, 0826ms total)
T4F3C 001:453 JLINK_Go() (0003ms, 0829ms total)
T4F3C 001:456 JLINK_IsHalted()  returns FALSE (0001ms, 0830ms total)
T4F3C 001:476 JLINK_IsHalted()  returns FALSE (0001ms, 0830ms total)
T4F3C 001:478 JLINK_IsHalted()  returns FALSE (0001ms, 0830ms total)
T4F3C 001:480 JLINK_IsHalted()  returns FALSE (0001ms, 0830ms total)
T4F3C 001:490 JLINK_IsHalted() -- CPU_ReadMem(2 bytes @ 0x20000000)  returns TRUE (0005ms, 0834ms total)
T4F3C 001:495 JLINK_ReadReg(R15 (PC))  returns 0x20000000 (0000ms, 0829ms total)
T4F3C 001:495 JLINK_ClrBPEx(BPHandle = 0x00000006)  returns 0x00 (0000ms, 0829ms total)
T4F3C 001:495 JLINK_ReadReg(R0)  returns 0x00000000 (0000ms, 0829ms total)
T4F3C 001:497 JLINK_WriteMem(0x20000164, 0x0400 Bytes, ...) -- Data:  69 4A E6 82 88 46 84 F8 03 90 82 F8 01 90 07 F8 ... -- CPU_WriteMem(1024 bytes @ 0x20000164)  returns 0x400 (0012ms, 0841ms total)
T4F3C 001:509 JLINK_WriteReg(R0, 0x08000800)  returns 0x00 (0000ms, 0841ms total)
T4F3C 001:509 JLINK_WriteReg(R1, 0x00000400)  returns 0x00 (0000ms, 0841ms total)
T4F3C 001:509 JLINK_WriteReg(R2, 0x20000164)  returns 0x00 (0000ms, 0841ms total)
T4F3C 001:509 JLINK_WriteReg(R3, 0x00000000)  returns 0x00 (0000ms, 0841ms total)
T4F3C 001:509 JLINK_WriteReg(R4, 0x00000000)  returns 0x00 (0000ms, 0841ms total)
T4F3C 001:509 JLINK_WriteReg(R5, 0x00000000)  returns 0x00 (0000ms, 0841ms total)
T4F3C 001:509 JLINK_WriteReg(R6, 0x00000000)  returns 0x00 (0000ms, 0841ms total)
T4F3C 001:509 JLINK_WriteReg(R7, 0x00000000)  returns 0x00 (0000ms, 0841ms total)
T4F3C 001:509 JLINK_WriteReg(R8, 0x00000000)  returns 0x00 (0000ms, 0841ms total)
T4F3C 001:509 JLINK_WriteReg(R9, 0x20000160)  returns 0x00 (0001ms, 0842ms total)
T4F3C 001:510 JLINK_WriteReg(R10, 0x00000000)  returns 0x00 (0000ms, 0842ms total)
T4F3C 001:510 JLINK_WriteReg(R11, 0x00000000)  returns 0x00 (0000ms, 0842ms total)
T4F3C 001:510 JLINK_WriteReg(R12, 0x00000000)  returns 0x00 (0000ms, 0842ms total)
T4F3C 001:510 JLINK_WriteReg(R13 (SP), 0x20000800)  returns 0x00 (0000ms, 0842ms total)
T4F3C 001:510 JLINK_WriteReg(R14, 0x20000001)  returns 0x00 (0000ms, 0842ms total)
T4F3C 001:510 JLINK_WriteReg(R15 (PC), 0x200000F4)  returns 0x00 (0000ms, 0842ms total)
T4F3C 001:510 JLINK_WriteReg(XPSR, 0x01000000)  returns 0x00 (0000ms, 0842ms total)
T4F3C 001:510 JLINK_WriteReg(MSP, 0x20000800)  returns 0x00 (0000ms, 0842ms total)
T4F3C 001:510 JLINK_WriteReg(PSP, 0x20000800)  returns 0x00 (0000ms, 0842ms total)
T4F3C 001:510 JLINK_WriteReg(CFBP, 0x00000000)  returns 0x00 (0000ms, 0842ms total)
T4F3C 001:510 JLINK_SetBPEx(Addr = 0x20000000, Type = 0xFFFFFFF2)  returns 0x00000007 (0000ms, 0842ms total)
T4F3C 001:510 JLINK_Go() (0003ms, 0845ms total)
T4F3C 001:513 JLINK_IsHalted()  returns FALSE (0001ms, 0846ms total)
T4F3C 001:534 JLINK_IsHalted()  returns FALSE (0001ms, 0846ms total)
T4F3C 001:536 JLINK_IsHalted()  returns FALSE (0001ms, 0846ms total)
T4F3C 001:538 JLINK_IsHalted()  returns FALSE (0001ms, 0846ms total)
T4F3C 001:540 JLINK_IsHalted()  returns FALSE (0001ms, 0846ms total)
T4F3C 001:542 JLINK_IsHalted()  returns FALSE (0001ms, 0846ms total)
T4F3C 001:550 JLINK_IsHalted() -- CPU_ReadMem(2 bytes @ 0x20000000)  returns TRUE (0005ms, 0850ms total)
T4F3C 001:555 JLINK_ReadReg(R15 (PC))  returns 0x20000000 (0000ms, 0845ms total)
T4F3C 001:555 JLINK_ClrBPEx(BPHandle = 0x00000007)  returns 0x00 (0000ms, 0845ms total)
T4F3C 001:555 JLINK_ReadReg(R0)  returns 0x00000000 (0000ms, 0845ms total)
T4F3C 001:555 JLINK_WriteMem(0x20000164, 0x0400 Bytes, ...) -- Data:  1C D0 98 42 21 D0 A0 42 3B D1 01 21 10 20 00 F0 ... -- CPU_WriteMem(1024 bytes @ 0x20000164)  returns 0x400 (0013ms, 0858ms total)
T4F3C 001:568 JLINK_WriteReg(R0, 0x08000C00)  returns 0x00 (0000ms, 0858ms total)
T4F3C 001:568 JLINK_WriteReg(R1, 0x00000400)  returns 0x00 (0000ms, 0858ms total)
T4F3C 001:568 JLINK_WriteReg(R2, 0x20000164)  returns 0x00 (0000ms, 0858ms total)
T4F3C 001:568 JLINK_WriteReg(R3, 0x00000000)  returns 0x00 (0000ms, 0858ms total)
T4F3C 001:568 JLINK_WriteReg(R4, 0x00000000)  returns 0x00 (0000ms, 0858ms total)
T4F3C 001:568 JLINK_WriteReg(R5, 0x00000000)  returns 0x00 (0000ms, 0858ms total)
T4F3C 001:568 JLINK_WriteReg(R6, 0x00000000)  returns 0x00 (0000ms, 0858ms total)
T4F3C 001:568 JLINK_WriteReg(R7, 0x00000000)  returns 0x00 (0000ms, 0858ms total)
T4F3C 001:568 JLINK_WriteReg(R8, 0x00000000)  returns 0x00 (0000ms, 0858ms total)
T4F3C 001:568 JLINK_WriteReg(R9, 0x20000160)  returns 0x00 (0000ms, 0858ms total)
T4F3C 001:568 JLINK_WriteReg(R10, 0x00000000)  returns 0x00 (0000ms, 0858ms total)
T4F3C 001:568 JLINK_WriteReg(R11, 0x00000000)  returns 0x00 (0000ms, 0858ms total)
T4F3C 001:568 JLINK_WriteReg(R12, 0x00000000)  returns 0x00 (0000ms, 0858ms total)
T4F3C 001:568 JLINK_WriteReg(R13 (SP), 0x20000800)  returns 0x00 (0000ms, 0858ms total)
T4F3C 001:568 JLINK_WriteReg(R14, 0x20000001)  returns 0x00 (0000ms, 0858ms total)
T4F3C 001:568 JLINK_WriteReg(R15 (PC), 0x200000F4)  returns 0x00 (0000ms, 0858ms total)
T4F3C 001:568 JLINK_WriteReg(XPSR, 0x01000000)  returns 0x00 (0000ms, 0858ms total)
T4F3C 001:568 JLINK_WriteReg(MSP, 0x20000800)  returns 0x00 (0000ms, 0858ms total)
T4F3C 001:568 JLINK_WriteReg(PSP, 0x20000800)  returns 0x00 (0000ms, 0858ms total)
T4F3C 001:568 JLINK_WriteReg(CFBP, 0x00000000)  returns 0x00 (0000ms, 0858ms total)
T4F3C 001:568 JLINK_SetBPEx(Addr = 0x20000000, Type = 0xFFFFFFF2)  returns 0x00000008 (0000ms, 0858ms total)
T4F3C 001:568 JLINK_Go() (0003ms, 0861ms total)
T4F3C 001:571 JLINK_IsHalted()  returns FALSE (0001ms, 0862ms total)
T4F3C 001:597 JLINK_IsHalted()  returns FALSE (0001ms, 0862ms total)
T4F3C 001:599 JLINK_IsHalted()  returns FALSE (0001ms, 0862ms total)
T4F3C 001:601 JLINK_IsHalted()  returns FALSE (0001ms, 0862ms total)
T4F3C 001:603 JLINK_IsHalted() -- CPU_ReadMem(2 bytes @ 0x20000000)  returns TRUE (0005ms, 0866ms total)
T4F3C 001:608 JLINK_ReadReg(R15 (PC))  returns 0x20000000 (0000ms, 0861ms total)
T4F3C 001:608 JLINK_ClrBPEx(BPHandle = 0x00000008)  returns 0x00 (0000ms, 0861ms total)
T4F3C 001:608 JLINK_ReadReg(R0)  returns 0x00000000 (0000ms, 0861ms total)
T4F3C 001:609 JLINK_WriteMem(0x20000164, 0x0400 Bytes, ...) -- Data:  54 68 05 EA D4 24 1B 5D D9 40 C1 60 52 68 03 23 ... -- CPU_WriteMem(1024 bytes @ 0x20000164)  returns 0x400 (0013ms, 0874ms total)
T4F3C 001:622 JLINK_WriteReg(R0, 0x08001000)  returns 0x00 (0000ms, 0874ms total)
T4F3C 001:622 JLINK_WriteReg(R1, 0x00000400)  returns 0x00 (0000ms, 0874ms total)
T4F3C 001:622 JLINK_WriteReg(R2, 0x20000164)  returns 0x00 (0000ms, 0874ms total)
T4F3C 001:622 JLINK_WriteReg(R3, 0x00000000)  returns 0x00 (0000ms, 0874ms total)
T4F3C 001:622 JLINK_WriteReg(R4, 0x00000000)  returns 0x00 (0000ms, 0874ms total)
T4F3C 001:622 JLINK_WriteReg(R5, 0x00000000)  returns 0x00 (0000ms, 0874ms total)
T4F3C 001:622 JLINK_WriteReg(R6, 0x00000000)  returns 0x00 (0000ms, 0874ms total)
T4F3C 001:622 JLINK_WriteReg(R7, 0x00000000)  returns 0x00 (0000ms, 0874ms total)
T4F3C 001:622 JLINK_WriteReg(R8, 0x00000000)  returns 0x00 (0000ms, 0874ms total)
T4F3C 001:622 JLINK_WriteReg(R9, 0x20000160)  returns 0x00 (0000ms, 0874ms total)
T4F3C 001:622 JLINK_WriteReg(R10, 0x00000000)  returns 0x00 (0000ms, 0874ms total)
T4F3C 001:622 JLINK_WriteReg(R11, 0x00000000)  returns 0x00 (0000ms, 0874ms total)
T4F3C 001:622 JLINK_WriteReg(R12, 0x00000000)  returns 0x00 (0000ms, 0874ms total)
T4F3C 001:622 JLINK_WriteReg(R13 (SP), 0x20000800)  returns 0x00 (0000ms, 0874ms total)
T4F3C 001:622 JLINK_WriteReg(R14, 0x20000001)  returns 0x00 (0000ms, 0874ms total)
T4F3C 001:623 JLINK_WriteReg(R15 (PC), 0x200000F4)  returns 0x00 (0000ms, 0875ms total)
T4F3C 001:623 JLINK_WriteReg(XPSR, 0x01000000)  returns 0x00 (0000ms, 0875ms total)
T4F3C 001:623 JLINK_WriteReg(MSP, 0x20000800)  returns 0x00 (0000ms, 0875ms total)
T4F3C 001:623 JLINK_WriteReg(PSP, 0x20000800)  returns 0x00 (0000ms, 0875ms total)
T4F3C 001:623 JLINK_WriteReg(CFBP, 0x00000000)  returns 0x00 (0000ms, 0875ms total)
T4F3C 001:623 JLINK_SetBPEx(Addr = 0x20000000, Type = 0xFFFFFFF2)  returns 0x00000009 (0000ms, 0875ms total)
T4F3C 001:623 JLINK_Go() (0002ms, 0877ms total)
T4F3C 001:625 JLINK_IsHalted()  returns FALSE (0001ms, 0878ms total)
T4F3C 001:649 JLINK_IsHalted()  returns FALSE (0001ms, 0878ms total)
T4F3C 001:657 JLINK_IsHalted() -- CPU_ReadMem(2 bytes @ 0x20000000)  returns TRUE (0005ms, 0882ms total)
T4F3C 001:662 JLINK_ReadReg(R15 (PC))  returns 0x20000000 (0000ms, 0877ms total)
T4F3C 001:662 JLINK_ClrBPEx(BPHandle = 0x00000009)  returns 0x00 (0000ms, 0877ms total)
T4F3C 001:662 JLINK_ReadReg(R0)  returns 0x00000000 (0000ms, 0877ms total)
T4F3C 001:662 JLINK_WriteMem(0x20000164, 0x0400 Bytes, ...) -- Data:  03 40 69 46 30 46 FF F7 48 FC 01 22 29 46 30 46 ... -- CPU_WriteMem(1024 bytes @ 0x20000164)  returns 0x400 (0013ms, 0890ms total)
T4F3C 001:675 JLINK_WriteReg(R0, 0x08001400)  returns 0x00 (0000ms, 0890ms total)
T4F3C 001:675 JLINK_WriteReg(R1, 0x00000400)  returns 0x00 (0000ms, 0890ms total)
T4F3C 001:675 JLINK_WriteReg(R2, 0x20000164)  returns 0x00 (0000ms, 0890ms total)
T4F3C 001:675 JLINK_WriteReg(R3, 0x00000000)  returns 0x00 (0000ms, 0890ms total)
T4F3C 001:675 JLINK_WriteReg(R4, 0x00000000)  returns 0x00 (0000ms, 0890ms total)
T4F3C 001:675 JLINK_WriteReg(R5, 0x00000000)  returns 0x00 (0000ms, 0890ms total)
T4F3C 001:675 JLINK_WriteReg(R6, 0x00000000)  returns 0x00 (0000ms, 0890ms total)
T4F3C 001:675 JLINK_WriteReg(R7, 0x00000000)  returns 0x00 (0000ms, 0890ms total)
T4F3C 001:675 JLINK_WriteReg(R8, 0x00000000)  returns 0x00 (0000ms, 0890ms total)
T4F3C 001:675 JLINK_WriteReg(R9, 0x20000160)  returns 0x00 (0000ms, 0890ms total)
T4F3C 001:675 JLINK_WriteReg(R10, 0x00000000)  returns 0x00 (0000ms, 0890ms total)
T4F3C 001:675 JLINK_WriteReg(R11, 0x00000000)  returns 0x00 (0000ms, 0890ms total)
T4F3C 001:675 JLINK_WriteReg(R12, 0x00000000)  returns 0x00 (0000ms, 0890ms total)
T4F3C 001:675 JLINK_WriteReg(R13 (SP), 0x20000800)  returns 0x00 (0000ms, 0890ms total)
T4F3C 001:676 JLINK_WriteReg(R14, 0x20000001)  returns 0x00 (0000ms, 0890ms total)
T4F3C 001:676 JLINK_WriteReg(R15 (PC), 0x200000F4)  returns 0x00 (0000ms, 0890ms total)
T4F3C 001:676 JLINK_WriteReg(XPSR, 0x01000000)  returns 0x00 (0000ms, 0890ms total)
T4F3C 001:676 JLINK_WriteReg(MSP, 0x20000800)  returns 0x00 (0000ms, 0890ms total)
T4F3C 001:676 JLINK_WriteReg(PSP, 0x20000800)  returns 0x00 (0000ms, 0890ms total)
T4F3C 001:676 JLINK_WriteReg(CFBP, 0x00000000)  returns 0x00 (0000ms, 0890ms total)
T4F3C 001:676 JLINK_SetBPEx(Addr = 0x20000000, Type = 0xFFFFFFF2)  returns 0x0000000A (0000ms, 0890ms total)
T4F3C 001:676 JLINK_Go() (0002ms, 0892ms total)
T4F3C 001:678 JLINK_IsHalted()  returns FALSE (0001ms, 0893ms total)
T4F3C 001:686 JLINK_IsHalted()  returns FALSE (0001ms, 0893ms total)
T4F3C 001:695 JLINK_IsHalted()  returns FALSE (0001ms, 0893ms total)
T4F3C 001:697 JLINK_IsHalted()  returns FALSE (0001ms, 0893ms total)
T4F3C 001:707 JLINK_IsHalted()  returns FALSE (0001ms, 0893ms total)
T4F3C 001:709 JLINK_IsHalted() -- CPU_ReadMem(2 bytes @ 0x20000000)  returns TRUE (0005ms, 0897ms total)
T4F3C 001:714 JLINK_ReadReg(R15 (PC))  returns 0x20000000 (0000ms, 0892ms total)
T4F3C 001:714 JLINK_ClrBPEx(BPHandle = 0x0000000A)  returns 0x00 (0000ms, 0892ms total)
T4F3C 001:714 JLINK_ReadReg(R0)  returns 0x00000000 (0000ms, 0892ms total)
T4F3C 001:715 JLINK_WriteMem(0x20000164, 0x0400 Bytes, ...) -- Data:  4F F0 00 06 00 E0 16 46 06 EB 01 08 08 FB 09 56 ... -- CPU_WriteMem(1024 bytes @ 0x20000164)  returns 0x400 (0013ms, 0905ms total)
T4F3C 001:728 JLINK_WriteReg(R0, 0x08001800)  returns 0x00 (0000ms, 0905ms total)
T4F3C 001:728 JLINK_WriteReg(R1, 0x00000400)  returns 0x00 (0000ms, 0905ms total)
T4F3C 001:728 JLINK_WriteReg(R2, 0x20000164)  returns 0x00 (0000ms, 0905ms total)
T4F3C 001:728 JLINK_WriteReg(R3, 0x00000000)  returns 0x00 (0000ms, 0905ms total)
T4F3C 001:728 JLINK_WriteReg(R4, 0x00000000)  returns 0x00 (0000ms, 0905ms total)
T4F3C 001:728 JLINK_WriteReg(R5, 0x00000000)  returns 0x00 (0000ms, 0905ms total)
T4F3C 001:728 JLINK_WriteReg(R6, 0x00000000)  returns 0x00 (0000ms, 0905ms total)
T4F3C 001:728 JLINK_WriteReg(R7, 0x00000000)  returns 0x00 (0000ms, 0905ms total)
T4F3C 001:728 JLINK_WriteReg(R8, 0x00000000)  returns 0x00 (0000ms, 0905ms total)
T4F3C 001:728 JLINK_WriteReg(R9, 0x20000160)  returns 0x00 (0000ms, 0905ms total)
T4F3C 001:728 JLINK_WriteReg(R10, 0x00000000)  returns 0x00 (0000ms, 0905ms total)
T4F3C 001:728 JLINK_WriteReg(R11, 0x00000000)  returns 0x00 (0001ms, 0906ms total)
T4F3C 001:729 JLINK_WriteReg(R12, 0x00000000)  returns 0x00 (0000ms, 0906ms total)
T4F3C 001:729 JLINK_WriteReg(R13 (SP), 0x20000800)  returns 0x00 (0000ms, 0906ms total)
T4F3C 001:729 JLINK_WriteReg(R14, 0x20000001)  returns 0x00 (0000ms, 0906ms total)
T4F3C 001:729 JLINK_WriteReg(R15 (PC), 0x200000F4)  returns 0x00 (0000ms, 0906ms total)
T4F3C 001:729 JLINK_WriteReg(XPSR, 0x01000000)  returns 0x00 (0000ms, 0906ms total)
T4F3C 001:729 JLINK_WriteReg(MSP, 0x20000800)  returns 0x00 (0000ms, 0906ms total)
T4F3C 001:729 JLINK_WriteReg(PSP, 0x20000800)  returns 0x00 (0000ms, 0906ms total)
T4F3C 001:729 JLINK_WriteReg(CFBP, 0x00000000)  returns 0x00 (0000ms, 0906ms total)
T4F3C 001:729 JLINK_SetBPEx(Addr = 0x20000000, Type = 0xFFFFFFF2)  returns 0x0000000B (0000ms, 0906ms total)
T4F3C 001:729 JLINK_Go() (0003ms, 0909ms total)
T4F3C 001:732 JLINK_IsHalted()  returns FALSE (0001ms, 0910ms total)
T4F3C 001:756 JLINK_IsHalted()  returns FALSE (0001ms, 0910ms total)
T4F3C 001:758 JLINK_IsHalted()  returns FALSE (0001ms, 0910ms total)
T4F3C 001:760 JLINK_IsHalted()  returns FALSE (0001ms, 0910ms total)
T4F3C 001:769 JLINK_IsHalted() -- CPU_ReadMem(2 bytes @ 0x20000000)  returns TRUE (0005ms, 0914ms total)
T4F3C 001:774 JLINK_ReadReg(R15 (PC))  returns 0x20000000 (0000ms, 0909ms total)
T4F3C 001:774 JLINK_ClrBPEx(BPHandle = 0x0000000B)  returns 0x00 (0000ms, 0909ms total)
T4F3C 001:774 JLINK_ReadReg(R0)  returns 0x00000000 (0000ms, 0909ms total)
T4F3C 001:774 JLINK_WriteMem(0x20000164, 0x0400 Bytes, ...) -- Data:  47 FA 06 F7 05 EB 04 0C 0A 96 02 DB 4F F0 00 06 ... -- CPU_WriteMem(1024 bytes @ 0x20000164)  returns 0x400 (0013ms, 0922ms total)
T4F3C 001:787 JLINK_WriteReg(R0, 0x08001C00)  returns 0x00 (0000ms, 0922ms total)
T4F3C 001:787 JLINK_WriteReg(R1, 0x00000400)  returns 0x00 (0000ms, 0922ms total)
T4F3C 001:787 JLINK_WriteReg(R2, 0x20000164)  returns 0x00 (0000ms, 0922ms total)
T4F3C 001:787 JLINK_WriteReg(R3, 0x00000000)  returns 0x00 (0000ms, 0922ms total)
T4F3C 001:787 JLINK_WriteReg(R4, 0x00000000)  returns 0x00 (0000ms, 0922ms total)
T4F3C 001:787 JLINK_WriteReg(R5, 0x00000000)  returns 0x00 (0000ms, 0922ms total)
T4F3C 001:787 JLINK_WriteReg(R6, 0x00000000)  returns 0x00 (0000ms, 0922ms total)
T4F3C 001:787 JLINK_WriteReg(R7, 0x00000000)  returns 0x00 (0000ms, 0922ms total)
T4F3C 001:787 JLINK_WriteReg(R8, 0x00000000)  returns 0x00 (0000ms, 0922ms total)
T4F3C 001:787 JLINK_WriteReg(R9, 0x20000160)  returns 0x00 (0000ms, 0922ms total)
T4F3C 001:787 JLINK_WriteReg(R10, 0x00000000)  returns 0x00 (0000ms, 0922ms total)
T4F3C 001:787 JLINK_WriteReg(R11, 0x00000000)  returns 0x00 (0000ms, 0922ms total)
T4F3C 001:787 JLINK_WriteReg(R12, 0x00000000)  returns 0x00 (0000ms, 0922ms total)
T4F3C 001:787 JLINK_WriteReg(R13 (SP), 0x20000800)  returns 0x00 (0000ms, 0922ms total)
T4F3C 001:787 JLINK_WriteReg(R14, 0x20000001)  returns 0x00 (0000ms, 0922ms total)
T4F3C 001:787 JLINK_WriteReg(R15 (PC), 0x200000F4)  returns 0x00 (0000ms, 0922ms total)
T4F3C 001:787 JLINK_WriteReg(XPSR, 0x01000000)  returns 0x00 (0000ms, 0922ms total)
T4F3C 001:787 JLINK_WriteReg(MSP, 0x20000800)  returns 0x00 (0001ms, 0923ms total)
T4F3C 001:788 JLINK_WriteReg(PSP, 0x20000800)  returns 0x00 (0000ms, 0923ms total)
T4F3C 001:788 JLINK_WriteReg(CFBP, 0x00000000)  returns 0x00 (0000ms, 0923ms total)
T4F3C 001:788 JLINK_SetBPEx(Addr = 0x20000000, Type = 0xFFFFFFF2)  returns 0x0000000C (0000ms, 0923ms total)
T4F3C 001:788 JLINK_Go() (0003ms, 0926ms total)
T4F3C 001:792 JLINK_IsHalted()  returns FALSE (0001ms, 0927ms total)
T4F3C 001:816 JLINK_IsHalted()  returns FALSE (0001ms, 0927ms total)
T4F3C 001:818 JLINK_IsHalted()  returns FALSE (0001ms, 0927ms total)
T4F3C 001:820 JLINK_IsHalted()  returns FALSE (0001ms, 0927ms total)
T4F3C 001:822 JLINK_IsHalted() -- CPU_ReadMem(2 bytes @ 0x20000000)  returns TRUE (0005ms, 0931ms total)
T4F3C 001:827 JLINK_ReadReg(R15 (PC))  returns 0x20000000 (0000ms, 0926ms total)
T4F3C 001:827 JLINK_ClrBPEx(BPHandle = 0x0000000C)  returns 0x00 (0000ms, 0926ms total)
T4F3C 001:827 JLINK_ReadReg(R0)  returns 0x00000000 (0000ms, 0926ms total)
T4F3C 001:827 JLINK_WriteMem(0x20000164, 0x0400 Bytes, ...) -- Data:  57 AF 49 1C 89 B2 09 9D A9 42 FF F4 B9 AB 07 9D ... -- CPU_WriteMem(1024 bytes @ 0x20000164)  returns 0x400 (0013ms, 0939ms total)
T4F3C 001:840 JLINK_WriteReg(R0, 0x08002000)  returns 0x00 (0000ms, 0939ms total)
T4F3C 001:840 JLINK_WriteReg(R1, 0x00000400)  returns 0x00 (0000ms, 0939ms total)
T4F3C 001:840 JLINK_WriteReg(R2, 0x20000164)  returns 0x00 (0000ms, 0939ms total)
T4F3C 001:840 JLINK_WriteReg(R3, 0x00000000)  returns 0x00 (0000ms, 0939ms total)
T4F3C 001:840 JLINK_WriteReg(R4, 0x00000000)  returns 0x00 (0000ms, 0939ms total)
T4F3C 001:840 JLINK_WriteReg(R5, 0x00000000)  returns 0x00 (0000ms, 0939ms total)
T4F3C 001:840 JLINK_WriteReg(R6, 0x00000000)  returns 0x00 (0000ms, 0939ms total)
T4F3C 001:840 JLINK_WriteReg(R7, 0x00000000)  returns 0x00 (0000ms, 0939ms total)
T4F3C 001:840 JLINK_WriteReg(R8, 0x00000000)  returns 0x00 (0000ms, 0939ms total)
T4F3C 001:840 JLINK_WriteReg(R9, 0x20000160)  returns 0x00 (0000ms, 0939ms total)
T4F3C 001:840 JLINK_WriteReg(R10, 0x00000000)  returns 0x00 (0000ms, 0939ms total)
T4F3C 001:840 JLINK_WriteReg(R11, 0x00000000)  returns 0x00 (0001ms, 0940ms total)
T4F3C 001:841 JLINK_WriteReg(R12, 0x00000000)  returns 0x00 (0000ms, 0940ms total)
T4F3C 001:841 JLINK_WriteReg(R13 (SP), 0x20000800)  returns 0x00 (0000ms, 0940ms total)
T4F3C 001:841 JLINK_WriteReg(R14, 0x20000001)  returns 0x00 (0000ms, 0940ms total)
T4F3C 001:841 JLINK_WriteReg(R15 (PC), 0x200000F4)  returns 0x00 (0000ms, 0940ms total)
T4F3C 001:841 JLINK_WriteReg(XPSR, 0x01000000)  returns 0x00 (0000ms, 0940ms total)
T4F3C 001:841 JLINK_WriteReg(MSP, 0x20000800)  returns 0x00 (0000ms, 0940ms total)
T4F3C 001:841 JLINK_WriteReg(PSP, 0x20000800)  returns 0x00 (0000ms, 0940ms total)
T4F3C 001:841 JLINK_WriteReg(CFBP, 0x00000000)  returns 0x00 (0000ms, 0940ms total)
T4F3C 001:841 JLINK_SetBPEx(Addr = 0x20000000, Type = 0xFFFFFFF2)  returns 0x0000000D (0000ms, 0940ms total)
T4F3C 001:841 JLINK_Go() (0002ms, 0942ms total)
T4F3C 001:843 JLINK_IsHalted()  returns FALSE (0001ms, 0943ms total)
T4F3C 001:866 JLINK_IsHalted()  returns FALSE (0001ms, 0943ms total)
T4F3C 001:868 JLINK_IsHalted()  returns FALSE (0001ms, 0943ms total)
T4F3C 001:870 JLINK_IsHalted()  returns FALSE (0001ms, 0943ms total)
T4F3C 001:878 JLINK_IsHalted() -- CPU_ReadMem(2 bytes @ 0x20000000)  returns TRUE (0005ms, 0947ms total)
T4F3C 001:883 JLINK_ReadReg(R15 (PC))  returns 0x20000000 (0000ms, 0942ms total)
T4F3C 001:883 JLINK_ClrBPEx(BPHandle = 0x0000000D)  returns 0x00 (0000ms, 0942ms total)
T4F3C 001:883 JLINK_ReadReg(R0)  returns 0x00000000 (0000ms, 0942ms total)
T4F3C 001:883 JLINK_WriteMem(0x20000164, 0x0400 Bytes, ...) -- Data:  05 EB 06 16 03 9D 06 F8 05 C0 01 9D 05 F1 01 05 ... -- CPU_WriteMem(1024 bytes @ 0x20000164)  returns 0x400 (0012ms, 0954ms total)
T4F3C 001:896 JLINK_WriteReg(R0, 0x08002400)  returns 0x00 (0000ms, 0955ms total)
T4F3C 001:896 JLINK_WriteReg(R1, 0x00000400)  returns 0x00 (0000ms, 0955ms total)
T4F3C 001:896 JLINK_WriteReg(R2, 0x20000164)  returns 0x00 (0000ms, 0955ms total)
T4F3C 001:896 JLINK_WriteReg(R3, 0x00000000)  returns 0x00 (0000ms, 0955ms total)
T4F3C 001:896 JLINK_WriteReg(R4, 0x00000000)  returns 0x00 (0000ms, 0955ms total)
T4F3C 001:896 JLINK_WriteReg(R5, 0x00000000)  returns 0x00 (0000ms, 0955ms total)
T4F3C 001:896 JLINK_WriteReg(R6, 0x00000000)  returns 0x00 (0000ms, 0955ms total)
T4F3C 001:896 JLINK_WriteReg(R7, 0x00000000)  returns 0x00 (0000ms, 0955ms total)
T4F3C 001:896 JLINK_WriteReg(R8, 0x00000000)  returns 0x00 (0000ms, 0955ms total)
T4F3C 001:896 JLINK_WriteReg(R9, 0x20000160)  returns 0x00 (0000ms, 0955ms total)
T4F3C 001:896 JLINK_WriteReg(R10, 0x00000000)  returns 0x00 (0000ms, 0955ms total)
T4F3C 001:896 JLINK_WriteReg(R11, 0x00000000)  returns 0x00 (0000ms, 0955ms total)
T4F3C 001:896 JLINK_WriteReg(R12, 0x00000000)  returns 0x00 (0000ms, 0955ms total)
T4F3C 001:896 JLINK_WriteReg(R13 (SP), 0x20000800)  returns 0x00 (0000ms, 0955ms total)
T4F3C 001:896 JLINK_WriteReg(R14, 0x20000001)  returns 0x00 (0000ms, 0955ms total)
T4F3C 001:896 JLINK_WriteReg(R15 (PC), 0x200000F4)  returns 0x00 (0000ms, 0955ms total)
T4F3C 001:896 JLINK_WriteReg(XPSR, 0x01000000)  returns 0x00 (0000ms, 0955ms total)
T4F3C 001:896 JLINK_WriteReg(MSP, 0x20000800)  returns 0x00 (0000ms, 0955ms total)
T4F3C 001:896 JLINK_WriteReg(PSP, 0x20000800)  returns 0x00 (0000ms, 0955ms total)
T4F3C 001:896 JLINK_WriteReg(CFBP, 0x00000000)  returns 0x00 (0000ms, 0955ms total)
T4F3C 001:896 JLINK_SetBPEx(Addr = 0x20000000, Type = 0xFFFFFFF2)  returns 0x0000000E (0000ms, 0955ms total)
T4F3C 001:896 JLINK_Go() (0003ms, 0958ms total)
T4F3C 001:899 JLINK_IsHalted()  returns FALSE (0001ms, 0959ms total)
T4F3C 001:917 JLINK_IsHalted()  returns FALSE (0001ms, 0959ms total)
T4F3C 001:919 JLINK_IsHalted()  returns FALSE (0001ms, 0959ms total)
T4F3C 001:930 JLINK_IsHalted() -- CPU_ReadMem(2 bytes @ 0x20000000)  returns TRUE (0005ms, 0963ms total)
T4F3C 001:935 JLINK_ReadReg(R15 (PC))  returns 0x20000000 (0000ms, 0958ms total)
T4F3C 001:935 JLINK_ClrBPEx(BPHandle = 0x0000000E)  returns 0x00 (0000ms, 0958ms total)
T4F3C 001:935 JLINK_ReadReg(R0)  returns 0x00000000 (0000ms, 0958ms total)
T4F3C 001:935 JLINK_WriteMem(0x20000164, 0x0400 Bytes, ...) -- Data:  00 2D 7D D0 00 25 77 E0 00 2C 01 DB 4D 46 00 E0 ... -- CPU_WriteMem(1024 bytes @ 0x20000164)  returns 0x400 (0013ms, 0971ms total)
T4F3C 001:948 JLINK_WriteReg(R0, 0x08002800)  returns 0x00 (0000ms, 0971ms total)
T4F3C 001:948 JLINK_WriteReg(R1, 0x00000400)  returns 0x00 (0000ms, 0971ms total)
T4F3C 001:948 JLINK_WriteReg(R2, 0x20000164)  returns 0x00 (0000ms, 0971ms total)
T4F3C 001:948 JLINK_WriteReg(R3, 0x00000000)  returns 0x00 (0000ms, 0971ms total)
T4F3C 001:948 JLINK_WriteReg(R4, 0x00000000)  returns 0x00 (0000ms, 0971ms total)
T4F3C 001:948 JLINK_WriteReg(R5, 0x00000000)  returns 0x00 (0000ms, 0971ms total)
T4F3C 001:948 JLINK_WriteReg(R6, 0x00000000)  returns 0x00 (0000ms, 0971ms total)
T4F3C 001:948 JLINK_WriteReg(R7, 0x00000000)  returns 0x00 (0000ms, 0971ms total)
T4F3C 001:948 JLINK_WriteReg(R8, 0x00000000)  returns 0x00 (0000ms, 0971ms total)
T4F3C 001:948 JLINK_WriteReg(R9, 0x20000160)  returns 0x00 (0001ms, 0972ms total)
T4F3C 001:949 JLINK_WriteReg(R10, 0x00000000)  returns 0x00 (0000ms, 0972ms total)
T4F3C 001:949 JLINK_WriteReg(R11, 0x00000000)  returns 0x00 (0000ms, 0972ms total)
T4F3C 001:949 JLINK_WriteReg(R12, 0x00000000)  returns 0x00 (0000ms, 0972ms total)
T4F3C 001:949 JLINK_WriteReg(R13 (SP), 0x20000800)  returns 0x00 (0000ms, 0972ms total)
T4F3C 001:949 JLINK_WriteReg(R14, 0x20000001)  returns 0x00 (0000ms, 0972ms total)
T4F3C 001:949 JLINK_WriteReg(R15 (PC), 0x200000F4)  returns 0x00 (0000ms, 0972ms total)
T4F3C 001:949 JLINK_WriteReg(XPSR, 0x01000000)  returns 0x00 (0000ms, 0972ms total)
T4F3C 001:949 JLINK_WriteReg(MSP, 0x20000800)  returns 0x00 (0000ms, 0972ms total)
T4F3C 001:949 JLINK_WriteReg(PSP, 0x20000800)  returns 0x00 (0000ms, 0972ms total)
T4F3C 001:949 JLINK_WriteReg(CFBP, 0x00000000)  returns 0x00 (0000ms, 0972ms total)
T4F3C 001:949 JLINK_SetBPEx(Addr = 0x20000000, Type = 0xFFFFFFF2)  returns 0x0000000F (0000ms, 0972ms total)
T4F3C 001:949 JLINK_Go() (0002ms, 0974ms total)
T4F3C 001:951 JLINK_IsHalted()  returns FALSE (0001ms, 0975ms total)
T4F3C 001:975 JLINK_IsHalted()  returns FALSE (0001ms, 0975ms total)
T4F3C 001:977 JLINK_IsHalted()  returns FALSE (0001ms, 0975ms total)
T4F3C 001:979 JLINK_IsHalted()  returns FALSE (0001ms, 0975ms total)
T4F3C 001:986 JLINK_IsHalted() -- CPU_ReadMem(2 bytes @ 0x20000000)  returns TRUE (0005ms, 0979ms total)
T4F3C 001:991 JLINK_ReadReg(R15 (PC))  returns 0x20000000 (0000ms, 0974ms total)
T4F3C 001:991 JLINK_ClrBPEx(BPHandle = 0x0000000F)  returns 0x00 (0000ms, 0974ms total)
T4F3C 001:991 JLINK_ReadReg(R0)  returns 0x00000000 (0000ms, 0974ms total)
T4F3C 001:991 JLINK_WriteMem(0x20000164, 0x0400 Bytes, ...) -- Data:  B0 F9 0E 00 02 1E 00 DA 50 42 E1 79 88 42 05 DB ... -- CPU_WriteMem(1024 bytes @ 0x20000164)  returns 0x400 (0013ms, 0987ms total)
T4F3C 002:004 JLINK_WriteReg(R0, 0x08002C00)  returns 0x00 (0000ms, 0987ms total)
T4F3C 002:004 JLINK_WriteReg(R1, 0x00000400)  returns 0x00 (0000ms, 0987ms total)
T4F3C 002:004 JLINK_WriteReg(R2, 0x20000164)  returns 0x00 (0000ms, 0987ms total)
T4F3C 002:004 JLINK_WriteReg(R3, 0x00000000)  returns 0x00 (0000ms, 0987ms total)
T4F3C 002:004 JLINK_WriteReg(R4, 0x00000000)  returns 0x00 (0000ms, 0987ms total)
T4F3C 002:004 JLINK_WriteReg(R5, 0x00000000)  returns 0x00 (0000ms, 0987ms total)
T4F3C 002:004 JLINK_WriteReg(R6, 0x00000000)  returns 0x00 (0000ms, 0987ms total)
T4F3C 002:004 JLINK_WriteReg(R7, 0x00000000)  returns 0x00 (0000ms, 0987ms total)
T4F3C 002:004 JLINK_WriteReg(R8, 0x00000000)  returns 0x00 (0000ms, 0987ms total)
T4F3C 002:004 JLINK_WriteReg(R9, 0x20000160)  returns 0x00 (0000ms, 0987ms total)
T4F3C 002:004 JLINK_WriteReg(R10, 0x00000000)  returns 0x00 (0000ms, 0987ms total)
T4F3C 002:004 JLINK_WriteReg(R11, 0x00000000)  returns 0x00 (0000ms, 0987ms total)
T4F3C 002:004 JLINK_WriteReg(R12, 0x00000000)  returns 0x00 (0000ms, 0987ms total)
T4F3C 002:004 JLINK_WriteReg(R13 (SP), 0x20000800)  returns 0x00 (0000ms, 0987ms total)
T4F3C 002:004 JLINK_WriteReg(R14, 0x20000001)  returns 0x00 (0000ms, 0987ms total)
T4F3C 002:004 JLINK_WriteReg(R15 (PC), 0x200000F4)  returns 0x00 (0000ms, 0987ms total)
T4F3C 002:004 JLINK_WriteReg(XPSR, 0x01000000)  returns 0x00 (0000ms, 0987ms total)
T4F3C 002:004 JLINK_WriteReg(MSP, 0x20000800)  returns 0x00 (0000ms, 0987ms total)
T4F3C 002:004 JLINK_WriteReg(PSP, 0x20000800)  returns 0x00 (0000ms, 0987ms total)
T4F3C 002:004 JLINK_WriteReg(CFBP, 0x00000000)  returns 0x00 (0000ms, 0987ms total)
T4F3C 002:004 JLINK_SetBPEx(Addr = 0x20000000, Type = 0xFFFFFFF2)  returns 0x00000010 (0000ms, 0987ms total)
T4F3C 002:004 JLINK_Go() (0003ms, 0990ms total)
T4F3C 002:007 JLINK_IsHalted()  returns FALSE (0001ms, 0991ms total)
T4F3C 002:023 JLINK_IsHalted()  returns FALSE (0001ms, 0991ms total)
T4F3C 002:025 JLINK_IsHalted()  returns FALSE (0002ms, 0992ms total)
T4F3C 002:034 JLINK_IsHalted()  returns FALSE (0001ms, 0991ms total)
T4F3C 002:036 JLINK_IsHalted()  returns FALSE (0001ms, 0991ms total)
T4F3C 002:038 JLINK_IsHalted() -- CPU_ReadMem(2 bytes @ 0x20000000)  returns TRUE (0005ms, 0995ms total)
T4F3C 002:043 JLINK_ReadReg(R15 (PC))  returns 0x20000000 (0000ms, 0990ms total)
T4F3C 002:043 JLINK_ClrBPEx(BPHandle = 0x00000010)  returns 0x00 (0000ms, 0990ms total)
T4F3C 002:043 JLINK_ReadReg(R0)  returns 0x00000000 (0000ms, 0990ms total)
T4F3C 002:043 JLINK_WriteMem(0x20000164, 0x0400 Bytes, ...) -- Data:  62 75 66 73 69 7A 65 3A 25 64 20 65 6E 61 62 6C ... -- CPU_WriteMem(1024 bytes @ 0x20000164)  returns 0x400 (0013ms, 1003ms total)
T4F3C 002:056 JLINK_WriteReg(R0, 0x08003000)  returns 0x00 (0000ms, 1003ms total)
T4F3C 002:056 JLINK_WriteReg(R1, 0x00000400)  returns 0x00 (0000ms, 1003ms total)
T4F3C 002:056 JLINK_WriteReg(R2, 0x20000164)  returns 0x00 (0000ms, 1003ms total)
T4F3C 002:056 JLINK_WriteReg(R3, 0x00000000)  returns 0x00 (0000ms, 1003ms total)
T4F3C 002:056 JLINK_WriteReg(R4, 0x00000000)  returns 0x00 (0000ms, 1003ms total)
T4F3C 002:056 JLINK_WriteReg(R5, 0x00000000)  returns 0x00 (0000ms, 1003ms total)
T4F3C 002:056 JLINK_WriteReg(R6, 0x00000000)  returns 0x00 (0000ms, 1003ms total)
T4F3C 002:056 JLINK_WriteReg(R7, 0x00000000)  returns 0x00 (0000ms, 1003ms total)
T4F3C 002:056 JLINK_WriteReg(R8, 0x00000000)  returns 0x00 (0000ms, 1003ms total)
T4F3C 002:056 JLINK_WriteReg(R9, 0x20000160)  returns 0x00 (0000ms, 1003ms total)
T4F3C 002:056 JLINK_WriteReg(R10, 0x00000000)  returns 0x00 (0000ms, 1003ms total)
T4F3C 002:056 JLINK_WriteReg(R11, 0x00000000)  returns 0x00 (0000ms, 1003ms total)
T4F3C 002:057 JLINK_WriteReg(R12, 0x00000000)  returns 0x00 (0000ms, 1004ms total)
T4F3C 002:057 JLINK_WriteReg(R13 (SP), 0x20000800)  returns 0x00 (0000ms, 1004ms total)
T4F3C 002:057 JLINK_WriteReg(R14, 0x20000001)  returns 0x00 (0000ms, 1004ms total)
T4F3C 002:057 JLINK_WriteReg(R15 (PC), 0x200000F4)  returns 0x00 (0000ms, 1004ms total)
T4F3C 002:057 JLINK_WriteReg(XPSR, 0x01000000)  returns 0x00 (0000ms, 1004ms total)
T4F3C 002:057 JLINK_WriteReg(MSP, 0x20000800)  returns 0x00 (0000ms, 1004ms total)
T4F3C 002:057 JLINK_WriteReg(PSP, 0x20000800)  returns 0x00 (0000ms, 1004ms total)
T4F3C 002:057 JLINK_WriteReg(CFBP, 0x00000000)  returns 0x00 (0000ms, 1004ms total)
T4F3C 002:057 JLINK_SetBPEx(Addr = 0x20000000, Type = 0xFFFFFFF2)  returns 0x00000011 (0000ms, 1004ms total)
T4F3C 002:057 JLINK_Go() (0002ms, 1006ms total)
T4F3C 002:059 JLINK_IsHalted()  returns FALSE (0001ms, 1007ms total)
T4F3C 002:082 JLINK_IsHalted()  returns FALSE (0001ms, 1007ms total)
T4F3C 002:084 JLINK_IsHalted()  returns FALSE (0001ms, 1007ms total)
T4F3C 002:086 JLINK_IsHalted()  returns FALSE (0001ms, 1007ms total)
T4F3C 002:088 JLINK_IsHalted()  returns FALSE (0001ms, 1007ms total)
T4F3C 002:096 JLINK_IsHalted() -- CPU_ReadMem(2 bytes @ 0x20000000)  returns TRUE (0005ms, 1011ms total)
T4F3C 002:101 JLINK_ReadReg(R15 (PC))  returns 0x20000000 (0000ms, 1006ms total)
